
T409C 000:063 SEGGER J-Link V6.10i Log File (0001ms, 0025ms total)
T409C 000:063 DLL Compiled: Oct 25 2016 19:31:51 (0001ms, 0025ms total)
T409C 000:063 Logging started @ 2017-09-10 21:44 (0001ms, 0025ms total)
T409C 000:064 JLINK_SetWarnOutHandler(...) (0000ms, 0025ms total)
T409C 000:064 JLINK_OpenEx(...)
Firmware: J-Link ARM V8 compiled Jan 31 2018 18:34:52
Hardware: V8.00
S/N: 20080643
Feature(s): RDI,FlashDL,FlashBP,JFlash,GDBFullWEBSRV Webserver running on local port 19080 (0011ms, 0036ms total)
T409C 000:064   returns O.K. (0011ms, 0036ms total)
T409C 000:075 JLINK_SetErrorOutHandler(...) (0000ms, 0036ms total)
T409C 000:075 JLINK_ExecCommand("ProjectFile = "F:\Google Drive\Document\Work\In_Progress\MrSong\Alcohol_Fire\V0.7\Program\USER\JLinkSettings.ini"", ...).   returns 0x00 (0098ms, 0134ms total)
T409C 000:179 JLINK_ExecCommand("Device = STM32F103RG", ...). Device "STM32F103RG" selected.  returns 0x00 (0005ms, 0139ms total)
T409C 000:184 JLINK_ExecCommand("DisableConnectionTimeout", ...).   returns 0x01 (0000ms, 0139ms total)
T409C 000:184 JLINK_GetHardwareVersion()  returns 0x13880 (0000ms, 0139ms total)
T409C 000:184 JLINK_GetDLLVersion()  returns 61009 (0000ms, 0139ms total)
T409C 000:184 JLINK_GetFirmwareString(...) (0000ms, 0139ms total)
T409C 000:197 JLINK_GetDLLVersion()  returns 61009 (0000ms, 0139ms total)
T409C 000:197 JLINK_GetCompileDateTime() (0000ms, 0139ms total)
T409C 000:201 JLINK_GetFirmwareString(...) (0000ms, 0139ms total)
T409C 000:205 JLINK_GetHardwareVersion()  returns 0x13880 (0000ms, 0139ms total)
T409C 000:224 JLINK_TIF_Select(JLINKARM_TIF_SWD)  returns 0x00 (0001ms, 0141ms total)
T409C 000:225 JLINK_SetSpeed(50000) (0000ms, 0141ms total)
T409C 000:225 JLINK_GetId() >0x108 TIF>Found SWD-DP with ID 0x1BA01477 >0x0D TIF> >0x28 TIF> >0x0D TIF> >0x28 TIF> >0x0D TIF> >0x28 TIF> >0x0D TIF> >0x28 TIF> >0x0D TIF> >0x21 TIF> >0x0D TIF> >0x28 TIF> >0x0D TIF> >0x28 TIF> >0x0D TIF> >0x28 TIF> >0x0D TIF> >0x21 TIF> >0x0D TIF> >0x21 TIF> >0x0D TIF> >0x28 TIF> >0x0D TIF> >0x21 TIF> >0x0D TIF> >0x21 TIF> >0x0D TIF> >0x28 TIF> >0x0D TIF> >0x28 TIF> >0x0D TIF> >0x28 TIF> >0x0D TIF> >0x21 TIF> >0x0D TIF> >0x21 TIF> >0x0D TIF> >0x28 TIF> >0x0D TIF>
 >0x21 TIF> >0x0D TIF> >0x21 TIF> >0x0D TIF> >0x28 TIF> >0x0D TIF> >0x21 TIF> >0x0D TIF> >0x21 TIF> >0x0D TIF> >0x28 TIF> >0x0D TIF> >0x21 TIF> >0x0D TIF> >0x21 TIF> >0x0D TIF> >0x28 TIF> >0x0D TIF> >0x21 TIF> >0x0D TIF> >0x21 TIF> >0x108 TIF>Found SWD-DP with ID 0x1BA01477 >0x0D TIF> >0x28 TIF> >0x0D TIF> >0x28 TIF> >0x0D TIF> >0x28 TIF> >0x0D TIF> >0x28 TIF> >0x0D TIF> >0x21 TIF> >0x0D TIF> >0x28 TIF> >0x0D TIF> >0x28 TIF> >0x0D TIF> >0x21 TIF> >0x0D TIF> >0x21 TIF> >0x0D TIF> >0x21 TIF>
AP-IDR: 0x14770011, Type: AHB-AP >0x0D TIF> >0x28 TIF> >0x0D TIF> >0x28 TIF> >0x0D TIF> >0x28 TIF> >0x0D TIF> >0x21 TIF> >0x0D TIF> >0x21 TIF> >0x0D TIF> >0x28 TIF> >0x0D TIF> >0x21 TIF> >0x0D TIF> >0x21 TIF>Found Cortex-M3 r1p1, Little endian. >0x0D TIF> >0x28 TIF> -- CPU_ReadMem(4 bytes @ 0xE000EDF0) -- CPU_WriteMem(4 bytes @ 0xE000EDF0) -- CPU_ReadMem(4 bytes @ 0xE0002000)FPUnit: 6 code (BP) slots and 2 literal slots -- CPU_ReadMem(4 bytes @ 0xE000EDFC) -- CPU_WriteMem(4 bytes @ 0xE000EDFC)
 -- CPU_ReadMem(4 bytes @ 0xE0001000) -- CPU_WriteMem(4 bytes @ 0xE0001000) -- CPU_ReadMem(4 bytes @ 0xE000ED88) -- CPU_WriteMem(4 bytes @ 0xE000ED88) -- CPU_ReadMem(4 bytes @ 0xE000ED88) -- CPU_WriteMem(4 bytes @ 0xE000ED88)CoreSight components:ROMTbl 0 @ E00FF000 -- CPU_ReadMem(16 bytes @ 0xE00FF000) -- CPU_ReadMem(16 bytes @ 0xE000EFF0) -- CPU_ReadMem(16 bytes @ 0xE000EFE0)ROMTbl 0 [0]: FFF0F000, CID: B105E00D, PID: 001BB000 SCS -- CPU_ReadMem(16 bytes @ 0xE0001FF0)
 -- CPU_ReadMem(16 bytes @ 0xE0001FE0)ROMTbl 0 [1]: FFF02000, CID: B105E00D, PID: 001BB002 DWT -- CPU_ReadMem(16 bytes @ 0xE0002FF0) -- CPU_ReadMem(16 bytes @ 0xE0002FE0)ROMTbl 0 [2]: FFF03000, CID: B105E00D, PID: 000BB003 FPB -- CPU_ReadMem(16 bytes @ 0xE0000FF0) -- CPU_ReadMem(16 bytes @ 0xE0000FE0)ROMTbl 0 [3]: FFF01000, CID: B105E00D, PID: 001BB001 ITM -- CPU_ReadMem(16 bytes @ 0xE00FF010) -- CPU_ReadMem(16 bytes @ 0xE0040FF0) -- CPU_ReadMem(16 bytes @ 0xE0040FE0)
ROMTbl 0 [4]: FFF41000, CID: B105900D, PID: 001BB923 TPIU-Lite -- CPU_ReadMem(16 bytes @ 0xE0041FF0) -- CPU_ReadMem(16 bytes @ 0xE0041FE0)ROMTbl 0 [5]: FFF42000, CID: B105900D, PID: 101BB924 ETM-M3 >0x0D TIF> >0x21 TIF>  returns 0x1BA01477 (0086ms, 0227ms total)
T409C 000:311 JLINK_GetDLLVersion()  returns 61009 (0000ms, 0227ms total)
T409C 000:311 JLINK_CORE_GetFound()  returns 0x30000FF (0000ms, 0227ms total)
T409C 000:311 JLINK_GetDebugInfo(0x100) -- Value=0xE00FF000  returns 0x00 (0000ms, 0227ms total)
T409C 000:316 JLINK_GetDebugInfo(0x100) -- Value=0xE00FF000  returns 0x00 (0000ms, 0227ms total)
T409C 000:316 JLINK_GetDebugInfo(0x101) -- Value=0xE0041000  returns 0x00 (0000ms, 0227ms total)
T409C 000:316 JLINK_GetDebugInfo(0x102) -- Value=0x00000000  returns 0x00 (0000ms, 0227ms total)
T409C 000:316 JLINK_GetDebugInfo(0x103) -- Value=0xE0040000  returns 0x00 (0000ms, 0227ms total)
T409C 000:316 JLINK_GetDebugInfo(0x104) -- Value=0xE0000000  returns 0x00 (0000ms, 0227ms total)
T409C 000:316 JLINK_GetDebugInfo(0x105) -- Value=0xE0001000  returns 0x00 (0000ms, 0227ms total)
T409C 000:316 JLINK_GetDebugInfo(0x106) -- Value=0xE0002000  returns 0x00 (0000ms, 0227ms total)
T409C 000:316 JLINK_GetDebugInfo(0x107) -- Value=0xE000E000  returns 0x00 (0000ms, 0227ms total)
T409C 000:316 JLINK_GetDebugInfo(0x10C) -- Value=0xE000EDF0  returns 0x00 (0000ms, 0227ms total)
T409C 000:316 JLINK_ReadMemU32(0xE000ED00, 0x0001 Items, ...) -- CPU is running -- CPU_ReadMem(4 bytes @ 0xE000ED00) - Data: 31 C2 1F 41  returns 0x01 (0000ms, 0227ms total)
T409C 000:316 JLINK_SetResetType(JLINKARM_RESET_TYPE_NORMAL)  returns JLINKARM_RESET_TYPE_NORMAL (0000ms, 0227ms total)
T409C 000:316 JLINK_Reset() -- CPU_WriteMem(4 bytes @ 0xE0002000) -- CPU_ReadMem(4 bytes @ 0xE000EDFC) -- CPU_WriteMem(4 bytes @ 0xE000EDFC) -- CPU_ReadMem(4 bytes @ 0xE0001000) (0011ms, 0238ms total)
T409C 000:327 JLINK_Halt()  returns 0x00 (0000ms, 0238ms total)
T409C 000:327 JLINK_IsHalted()  returns TRUE (0000ms, 0238ms total)
T409C 000:327 JLINK_ReadMemU32(0xE000EDF0, 0x0001 Items, ...) -- CPU_ReadMem(4 bytes @ 0xE000EDF0) - Data: 03 00 03 00  returns 0x01 (0001ms, 0239ms total)
T409C 000:328 JLINK_WriteU32(0xE000EDF0, 0xA05F0003) -- CPU_WriteMem(4 bytes @ 0xE000EDF0)  returns 0x00 (0000ms, 0239ms total)
T409C 000:328 JLINK_WriteU32(0xE000EDFC, 0x01000000) -- CPU_WriteMem(4 bytes @ 0xE000EDFC)  returns 0x00 (0000ms, 0239ms total)
T409C 000:344 JLINK_GetHWStatus(...)  returns 0x00 (0001ms, 0240ms total)
T409C 000:358 JLINK_GetNumBPUnits(Type = 0xFFFFFF00)  returns 0x06 (0000ms, 0240ms total)
T409C 000:358 JLINK_GetNumBPUnits(Type = 0xF0)  returns 0x2000 (0000ms, 0240ms total)
T409C 000:358 JLINK_GetNumWPUnits()  returns 0x04 (0000ms, 0240ms total)
T409C 000:369 JLINK_GetSpeed()  returns 0xFA0 (0000ms, 0240ms total)
T409C 000:377 JLINK_ReadMemU32(0xE000E004, 0x0001 Items, ...) -- CPU_ReadMem(4 bytes @ 0xE000E004) - Data: 01 00 00 00  returns 0x01 (0000ms, 0240ms total)
T409C 000:377 JLINK_ReadMemU32(0xE000E004, 0x0001 Items, ...) -- CPU_ReadMem(4 bytes @ 0xE000E004) - Data: 01 00 00 00  returns 0x01 (0001ms, 0241ms total)
T409C 000:378 JLINK_WriteMem(0xE0001000, 0x001C Bytes, ...) - Data: 01 00 00 00 00 00 00 00 00 00 00 00 00 00 00 00 ... -- CPU_WriteMem(28 bytes @ 0xE0001000)  returns 0x1C (0001ms, 0242ms total)
T409C 000:379 JLINK_ReadMem (0xE0001000, 0x001C Bytes, ...) -- CPU_ReadMem(28 bytes @ 0xE0001000) - Data: 01 00 00 40 00 00 00 00 00 00 00 00 00 00 00 00 ...  returns 0x00 (0000ms, 0242ms total)
T409C 000:379 JLINK_Halt()  returns 0x00 (0000ms, 0242ms total)
T409C 000:379 JLINK_IsHalted()  returns TRUE (0000ms, 0242ms total)
T409C 000:381 JLINK_WriteMem(0x20000000, 0x0260 Bytes, ...) - Data: 00 BE 0A E0 0D 78 2D 06 68 40 08 24 40 00 00 D3 ... -- CPU_WriteMem(608 bytes @ 0x20000000)  returns 0x260 (0005ms, 0247ms total)
T409C 000:386 JLINK_WriteReg(R0, 0x08000000)  returns 0x00 (0000ms, 0247ms total)
T409C 000:386 JLINK_WriteReg(R1, 0x00B71B00)  returns 0x00 (0000ms, 0247ms total)
T409C 000:386 JLINK_WriteReg(R2, 0x00000001)  returns 0x00 (0000ms, 0247ms total)
T409C 000:386 JLINK_WriteReg(R3, 0x00000000)  returns 0x00 (0000ms, 0247ms total)
T409C 000:386 JLINK_WriteReg(R4, 0x00000000)  returns 0x00 (0000ms, 0247ms total)
T409C 000:386 JLINK_WriteReg(R5, 0x00000000)  returns 0x00 (0000ms, 0247ms total)
T409C 000:386 JLINK_WriteReg(R6, 0x00000000)  returns 0x00 (0000ms, 0247ms total)
T409C 000:386 JLINK_WriteReg(R7, 0x00000000)  returns 0x00 (0000ms, 0247ms total)
T409C 000:386 JLINK_WriteReg(R8, 0x00000000)  returns 0x00 (0000ms, 0247ms total)
T409C 000:386 JLINK_WriteReg(R9, 0x20000258)  returns 0x00 (0000ms, 0247ms total)
T409C 000:386 JLINK_WriteReg(R10, 0x00000000)  returns 0x00 (0000ms, 0247ms total)
T409C 000:386 JLINK_WriteReg(R11, 0x00000000)  returns 0x00 (0000ms, 0247ms total)
T409C 000:386 JLINK_WriteReg(R12, 0x00000000)  returns 0x00 (0000ms, 0247ms total)
T409C 000:386 JLINK_WriteReg(R13 (SP), 0x20001000)  returns 0x00 (0000ms, 0247ms total)
T409C 000:386 JLINK_WriteReg(R14, 0x20000001)  returns 0x00 (0000ms, 0247ms total)
T409C 000:386 JLINK_WriteReg(R15 (PC), 0x20000038)  returns 0x00 (0000ms, 0247ms total)
T409C 000:386 JLINK_WriteReg(XPSR, 0x01000000)  returns 0x00 (0000ms, 0247ms total)
T409C 000:386 JLINK_WriteReg(MSP, 0x20001000)  returns 0x00 (0000ms, 0247ms total)
T409C 000:386 JLINK_WriteReg(PSP, 0x20001000)  returns 0x00 (0000ms, 0247ms total)
T409C 000:386 JLINK_WriteReg(CFBP, 0x00000000)  returns 0x00 (0000ms, 0247ms total)
T409C 000:386 JLINK_SetBPEx(Addr = 0x20000000, Type = 0xFFFFFFF2) -- CPU_ReadMem(2 bytes @ 0x20000000)  returns 0x00000001 (0000ms, 0247ms total)
T409C 000:386 JLINK_Go() -- CPU_WriteMem(2 bytes @ 0x20000000) -- CPU_WriteMem(4 bytes @ 0xE0002008) -- CPU_WriteMem(4 bytes @ 0xE000200C) -- CPU_WriteMem(4 bytes @ 0xE0002010) -- CPU_WriteMem(4 bytes @ 0xE0002014) -- CPU_WriteMem(4 bytes @ 0xE0002018) -- CPU_WriteMem(4 bytes @ 0xE000201C) -- CPU_ReadMem(4 bytes @ 0xE0001000) -- CPU_WriteMem(4 bytes @ 0xE0001004) (0005ms, 0252ms total)
T409C 000:391 JLINK_IsHalted() -- CPU_ReadMem(2 bytes @ 0x20000000)  returns TRUE (0003ms, 0255ms total)
T409C 000:394 JLINK_ReadReg(R15 (PC))  returns 0x20000000 (0000ms, 0252ms total)
T409C 000:394 JLINK_ClrBPEx(BPHandle = 0x00000001)  returns 0x00 (0000ms, 0252ms total)
T409C 000:394 JLINK_ReadReg(R0)  returns 0x00000000 (0000ms, 0252ms total)
T409C 000:394 JLINK_WriteReg(R0, 0x08000000)  returns 0x00 (0000ms, 0252ms total)
T409C 000:394 JLINK_WriteReg(R1, 0x00B71B00)  returns 0x00 (0000ms, 0252ms total)
T409C 000:394 JLINK_WriteReg(R2, 0x00000001)  returns 0x00 (0000ms, 0252ms total)
T409C 000:394 JLINK_WriteReg(R3, 0x00000000)  returns 0x00 (0000ms, 0252ms total)
T409C 000:394 JLINK_WriteReg(R4, 0x00000000)  returns 0x00 (0000ms, 0252ms total)
T409C 000:394 JLINK_WriteReg(R5, 0x00000000)  returns 0x00 (0000ms, 0252ms total)
T409C 000:394 JLINK_WriteReg(R6, 0x00000000)  returns 0x00 (0000ms, 0252ms total)
T409C 000:394 JLINK_WriteReg(R7, 0x00000000)  returns 0x00 (0000ms, 0252ms total)
T409C 000:394 JLINK_WriteReg(R8, 0x00000000)  returns 0x00 (0000ms, 0252ms total)
T409C 000:394 JLINK_WriteReg(R9, 0x20000258)  returns 0x00 (0000ms, 0252ms total)
T409C 000:394 JLINK_WriteReg(R10, 0x00000000)  returns 0x00 (0000ms, 0252ms total)
T409C 000:394 JLINK_WriteReg(R11, 0x00000000)  returns 0x00 (0000ms, 0252ms total)
T409C 000:395 JLINK_WriteReg(R12, 0x00000000)  returns 0x00 (0000ms, 0253ms total)
T409C 000:395 JLINK_WriteReg(R13 (SP), 0x20001000)  returns 0x00 (0000ms, 0253ms total)
T409C 000:395 JLINK_WriteReg(R14, 0x20000001)  returns 0x00 (0000ms, 0253ms total)
T409C 000:395 JLINK_WriteReg(R15 (PC), 0x20000098)  returns 0x00 (0000ms, 0253ms total)
T409C 000:395 JLINK_WriteReg(XPSR, 0x01000000)  returns 0x00 (0000ms, 0253ms total)
T409C 000:395 JLINK_WriteReg(MSP, 0x20001000)  returns 0x00 (0000ms, 0253ms total)
T409C 000:395 JLINK_WriteReg(PSP, 0x20001000)  returns 0x00 (0000ms, 0253ms total)
T409C 000:395 JLINK_WriteReg(CFBP, 0x00000000)  returns 0x00 (0000ms, 0253ms total)
T409C 000:395 JLINK_SetBPEx(Addr = 0x20000000, Type = 0xFFFFFFF2)  returns 0x00000002 (0000ms, 0253ms total)
T409C 000:395 JLINK_Go() -- CPU_ReadMem(4 bytes @ 0xE0001000) (0001ms, 0254ms total)
T409C 000:396 JLINK_IsHalted()  returns FALSE (0000ms, 0254ms total)
T409C 000:445 JLINK_IsHalted() -- CPU_ReadMem(2 bytes @ 0x20000000)  returns TRUE (0003ms, 0257ms total)
T409C 000:448 JLINK_ReadReg(R15 (PC))  returns 0x20000000 (0000ms, 0254ms total)
T409C 000:448 JLINK_ClrBPEx(BPHandle = 0x00000002)  returns 0x00 (0000ms, 0254ms total)
T409C 000:448 JLINK_ReadReg(R0)  returns 0x00000000 (0000ms, 0254ms total)
T409C 000:499 JLINK_WriteReg(R0, 0x00000001)  returns 0x00 (0000ms, 0254ms total)
T409C 000:499 JLINK_WriteReg(R1, 0x00B71B00)  returns 0x00 (0000ms, 0254ms total)
T409C 000:499 JLINK_WriteReg(R2, 0x00000001)  returns 0x00 (0000ms, 0254ms total)
T409C 000:499 JLINK_WriteReg(R3, 0x00000000)  returns 0x00 (0000ms, 0254ms total)
T409C 000:499 JLINK_WriteReg(R4, 0x00000000)  returns 0x00 (0000ms, 0254ms total)
T409C 000:499 JLINK_WriteReg(R5, 0x00000000)  returns 0x00 (0000ms, 0254ms total)
T409C 000:499 JLINK_WriteReg(R6, 0x00000000)  returns 0x00 (0000ms, 0254ms total)
T409C 000:499 JLINK_WriteReg(R7, 0x00000000)  returns 0x00 (0000ms, 0254ms total)
T409C 000:499 JLINK_WriteReg(R8, 0x00000000)  returns 0x00 (0000ms, 0254ms total)
T409C 000:499 JLINK_WriteReg(R9, 0x20000258)  returns 0x00 (0000ms, 0254ms total)
T409C 000:499 JLINK_WriteReg(R10, 0x00000000)  returns 0x00 (0000ms, 0254ms total)
T409C 000:499 JLINK_WriteReg(R11, 0x00000000)  returns 0x00 (0000ms, 0254ms total)
T409C 000:499 JLINK_WriteReg(R12, 0x00000000)  returns 0x00 (0000ms, 0254ms total)
T409C 000:499 JLINK_WriteReg(R13 (SP), 0x20001000)  returns 0x00 (0001ms, 0255ms total)
T409C 000:500 JLINK_WriteReg(R14, 0x20000001)  returns 0x00 (0000ms, 0255ms total)
T409C 000:500 JLINK_WriteReg(R15 (PC), 0x2000007C)  returns 0x00 (0000ms, 0255ms total)
T409C 000:500 JLINK_WriteReg(XPSR, 0x01000000)  returns 0x00 (0000ms, 0255ms total)
T409C 000:500 JLINK_WriteReg(MSP, 0x20001000)  returns 0x00 (0000ms, 0255ms total)
T409C 000:500 JLINK_WriteReg(PSP, 0x20001000)  returns 0x00 (0000ms, 0255ms total)
T409C 000:500 JLINK_WriteReg(CFBP, 0x00000000)  returns 0x00 (0000ms, 0255ms total)
T409C 000:500 JLINK_SetBPEx(Addr = 0x20000000, Type = 0xFFFFFFF2)  returns 0x00000003 (0000ms, 0255ms total)
T409C 000:500 JLINK_Go() -- CPU_ReadMem(4 bytes @ 0xE0001000) (0001ms, 0256ms total)
T409C 000:501 JLINK_IsHalted() -- CPU_ReadMem(2 bytes @ 0x20000000)  returns TRUE (0003ms, 0259ms total)
T409C 000:504 JLINK_ReadReg(R15 (PC))  returns 0x20000000 (0000ms, 0256ms total)
T409C 000:504 JLINK_ClrBPEx(BPHandle = 0x00000003)  returns 0x00 (0000ms, 0256ms total)
T409C 000:504 JLINK_ReadReg(R0)  returns 0x00000000 (0000ms, 0256ms total)
T409C 000:514 JLINK_WriteMem(0x20000000, 0x0260 Bytes, ...) - Data: 00 BE 0A E0 0D 78 2D 06 68 40 08 24 40 00 00 D3 ... -- CPU_WriteMem(608 bytes @ 0x20000000)  returns 0x260 (0003ms, 0259ms total)
T409C 000:517 JLINK_WriteReg(R0, 0x08000000)  returns 0x00 (0000ms, 0259ms total)
T409C 000:517 JLINK_WriteReg(R1, 0x00B71B00)  returns 0x00 (0000ms, 0259ms total)
T409C 000:517 JLINK_WriteReg(R2, 0x00000002)  returns 0x00 (0000ms, 0259ms total)
T409C 000:517 JLINK_WriteReg(R3, 0x00000000)  returns 0x00 (0000ms, 0259ms total)
T409C 000:517 JLINK_WriteReg(R4, 0x00000000)  returns 0x00 (0000ms, 0259ms total)
T409C 000:517 JLINK_WriteReg(R5, 0x00000000)  returns 0x00 (0000ms, 0259ms total)
T409C 000:517 JLINK_WriteReg(R6, 0x00000000)  returns 0x00 (0000ms, 0259ms total)
T409C 000:517 JLINK_WriteReg(R7, 0x00000000)  returns 0x00 (0000ms, 0259ms total)
T409C 000:517 JLINK_WriteReg(R8, 0x00000000)  returns 0x00 (0000ms, 0259ms total)
T409C 000:517 JLINK_WriteReg(R9, 0x20000258)  returns 0x00 (0000ms, 0259ms total)
T409C 000:517 JLINK_WriteReg(R10, 0x00000000)  returns 0x00 (0000ms, 0259ms total)
T409C 000:517 JLINK_WriteReg(R11, 0x00000000)  returns 0x00 (0000ms, 0259ms total)
T409C 000:517 JLINK_WriteReg(R12, 0x00000000)  returns 0x00 (0000ms, 0259ms total)
T409C 000:517 JLINK_WriteReg(R13 (SP), 0x20001000)  returns 0x00 (0000ms, 0259ms total)
T409C 000:517 JLINK_WriteReg(R14, 0x20000001)  returns 0x00 (0000ms, 0259ms total)
T409C 000:517 JLINK_WriteReg(R15 (PC), 0x20000038)  returns 0x00 (0000ms, 0259ms total)
T409C 000:517 JLINK_WriteReg(XPSR, 0x01000000)  returns 0x00 (0001ms, 0260ms total)
T409C 000:518 JLINK_WriteReg(MSP, 0x20001000)  returns 0x00 (0000ms, 0260ms total)
T409C 000:518 JLINK_WriteReg(PSP, 0x20001000)  returns 0x00 (0000ms, 0260ms total)
T409C 000:518 JLINK_WriteReg(CFBP, 0x00000000)  returns 0x00 (0000ms, 0260ms total)
T409C 000:518 JLINK_SetBPEx(Addr = 0x20000000, Type = 0xFFFFFFF2) -- CPU_ReadMem(2 bytes @ 0x20000000)  returns 0x00000004 (0000ms, 0260ms total)
T409C 000:518 JLINK_Go() -- CPU_WriteMem(2 bytes @ 0x20000000) -- CPU_ReadMem(4 bytes @ 0xE0001000) (0002ms, 0262ms total)
T409C 000:520 JLINK_IsHalted() -- CPU_ReadMem(2 bytes @ 0x20000000)  returns TRUE (0003ms, 0265ms total)
T409C 000:523 JLINK_ReadReg(R15 (PC))  returns 0x20000000 (0000ms, 0262ms total)
T409C 000:523 JLINK_ClrBPEx(BPHandle = 0x00000004)  returns 0x00 (0000ms, 0262ms total)
T409C 000:523 JLINK_ReadReg(R0)  returns 0x00000000 (0000ms, 0262ms total)
T409C 000:523 JLINK_WriteMem(0x20000260, 0x0400 Bytes, ...) - Data: 78 0B 00 20 B9 02 00 08 C1 02 00 08 C3 02 00 08 ... -- CPU_WriteMem(1024 bytes @ 0x20000260)  returns 0x400 (0006ms, 0268ms total)
T409C 000:529 JLINK_WriteReg(R0, 0x08000000)  returns 0x00 (0000ms, 0268ms total)
T409C 000:529 JLINK_WriteReg(R1, 0x00000400)  returns 0x00 (0000ms, 0268ms total)
T409C 000:529 JLINK_WriteReg(R2, 0x20000260)  returns 0x00 (0000ms, 0268ms total)
T409C 000:529 JLINK_WriteReg(R3, 0x00000000)  returns 0x00 (0000ms, 0268ms total)
T409C 000:529 JLINK_WriteReg(R4, 0x00000000)  returns 0x00 (0000ms, 0268ms total)
T409C 000:529 JLINK_WriteReg(R5, 0x00000000)  returns 0x00 (0000ms, 0268ms total)
T409C 000:529 JLINK_WriteReg(R6, 0x00000000)  returns 0x00 (0000ms, 0268ms total)
T409C 000:529 JLINK_WriteReg(R7, 0x00000000)  returns 0x00 (0000ms, 0268ms total)
T409C 000:529 JLINK_WriteReg(R8, 0x00000000)  returns 0x00 (0000ms, 0268ms total)
T409C 000:529 JLINK_WriteReg(R9, 0x20000258)  returns 0x00 (0000ms, 0268ms total)
T409C 000:529 JLINK_WriteReg(R10, 0x00000000)  returns 0x00 (0000ms, 0268ms total)
T409C 000:529 JLINK_WriteReg(R11, 0x00000000)  returns 0x00 (0000ms, 0268ms total)
T409C 000:529 JLINK_WriteReg(R12, 0x00000000)  returns 0x00 (0000ms, 0268ms total)
T409C 000:529 JLINK_WriteReg(R13 (SP), 0x20001000)  returns 0x00 (0000ms, 0268ms total)
T409C 000:529 JLINK_WriteReg(R14, 0x20000001)  returns 0x00 (0000ms, 0268ms total)
T409C 000:529 JLINK_WriteReg(R15 (PC), 0x2000018C)  returns 0x00 (0000ms, 0268ms total)
T409C 000:529 JLINK_WriteReg(XPSR, 0x01000000)  returns 0x00 (0000ms, 0268ms total)
T409C 000:529 JLINK_WriteReg(MSP, 0x20001000)  returns 0x00 (0000ms, 0268ms total)
T409C 000:529 JLINK_WriteReg(PSP, 0x20001000)  returns 0x00 (0000ms, 0268ms total)
T409C 000:529 JLINK_WriteReg(CFBP, 0x00000000)  returns 0x00 (0000ms, 0268ms total)
T409C 000:529 JLINK_SetBPEx(Addr = 0x20000000, Type = 0xFFFFFFF2)  returns 0x00000005 (0000ms, 0268ms total)
T409C 000:529 JLINK_Go() -- CPU_ReadMem(4 bytes @ 0xE0001000) (0002ms, 0270ms total)
T409C 000:531 JLINK_IsHalted()  returns FALSE (0000ms, 0270ms total)
T409C 000:536 JLINK_IsHalted()  returns FALSE (0000ms, 0270ms total)
T409C 000:540 JLINK_IsHalted()  returns FALSE (0000ms, 0270ms total)
T409C 000:542 JLINK_IsHalted()  returns FALSE (0000ms, 0270ms total)
T409C 000:543 JLINK_IsHalted()  returns FALSE (0000ms, 0270ms total)
T409C 000:545 JLINK_IsHalted()  returns FALSE (0000ms, 0270ms total)
T409C 000:546 JLINK_IsHalted()  returns FALSE (0000ms, 0270ms total)
T409C 000:548 JLINK_IsHalted()  returns FALSE (0000ms, 0270ms total)
T409C 000:549 JLINK_IsHalted()  returns FALSE (0000ms, 0270ms total)
T409C 000:553 JLINK_IsHalted()  returns FALSE (0000ms, 0270ms total)
T409C 000:554 JLINK_IsHalted()  returns FALSE (0000ms, 0270ms total)
T409C 000:556 JLINK_IsHalted()  returns FALSE (0000ms, 0270ms total)
T409C 000:558 JLINK_IsHalted()  returns FALSE (0000ms, 0270ms total)
T409C 000:559 JLINK_IsHalted()  returns FALSE (0000ms, 0270ms total)
T409C 000:561 JLINK_IsHalted()  returns FALSE (0000ms, 0270ms total)
T409C 000:562 JLINK_IsHalted() -- CPU_ReadMem(2 bytes @ 0x20000000)  returns TRUE (0003ms, 0273ms total)
T409C 000:565 JLINK_ReadReg(R15 (PC))  returns 0x20000000 (0000ms, 0270ms total)
T409C 000:565 JLINK_ClrBPEx(BPHandle = 0x00000005)  returns 0x00 (0000ms, 0270ms total)
T409C 000:565 JLINK_ReadReg(R0)  returns 0x00000000 (0000ms, 0270ms total)
T409C 000:566 JLINK_WriteMem(0x20000260, 0x0400 Bytes, ...) - Data: 01 D1 52 1E ED D1 18 1B 70 BD 00 00 4F F0 01 3C ... -- CPU_WriteMem(1024 bytes @ 0x20000260)  returns 0x400 (0006ms, 0276ms total)
T409C 000:572 JLINK_WriteReg(R0, 0x08000400)  returns 0x00 (0000ms, 0276ms total)
T409C 000:572 JLINK_WriteReg(R1, 0x00000400)  returns 0x00 (0000ms, 0276ms total)
T409C 000:572 JLINK_WriteReg(R2, 0x20000260)  returns 0x00 (0000ms, 0276ms total)
T409C 000:572 JLINK_WriteReg(R3, 0x00000000)  returns 0x00 (0000ms, 0276ms total)
T409C 000:572 JLINK_WriteReg(R4, 0x00000000)  returns 0x00 (0000ms, 0276ms total)
T409C 000:572 JLINK_WriteReg(R5, 0x00000000)  returns 0x00 (0000ms, 0276ms total)
T409C 000:572 JLINK_WriteReg(R6, 0x00000000)  returns 0x00 (0000ms, 0276ms total)
T409C 000:572 JLINK_WriteReg(R7, 0x00000000)  returns 0x00 (0000ms, 0276ms total)
T409C 000:572 JLINK_WriteReg(R8, 0x00000000)  returns 0x00 (0000ms, 0276ms total)
T409C 000:572 JLINK_WriteReg(R9, 0x20000258)  returns 0x00 (0000ms, 0276ms total)
T409C 000:572 JLINK_WriteReg(R10, 0x00000000)  returns 0x00 (0000ms, 0276ms total)
T409C 000:572 JLINK_WriteReg(R11, 0x00000000)  returns 0x00 (0000ms, 0276ms total)
T409C 000:572 JLINK_WriteReg(R12, 0x00000000)  returns 0x00 (0000ms, 0276ms total)
T409C 000:572 JLINK_WriteReg(R13 (SP), 0x20001000)  returns 0x00 (0000ms, 0276ms total)
T409C 000:572 JLINK_WriteReg(R14, 0x20000001)  returns 0x00 (0000ms, 0276ms total)
T409C 000:572 JLINK_WriteReg(R15 (PC), 0x2000018C)  returns 0x00 (0000ms, 0276ms total)
T409C 000:572 JLINK_WriteReg(XPSR, 0x01000000)  returns 0x00 (0001ms, 0277ms total)
T409C 000:573 JLINK_WriteReg(MSP, 0x20001000)  returns 0x00 (0000ms, 0277ms total)
T409C 000:573 JLINK_WriteReg(PSP, 0x20001000)  returns 0x00 (0000ms, 0277ms total)
T409C 000:573 JLINK_WriteReg(CFBP, 0x00000000)  returns 0x00 (0000ms, 0277ms total)
T409C 000:573 JLINK_SetBPEx(Addr = 0x20000000, Type = 0xFFFFFFF2)  returns 0x00000006 (0000ms, 0277ms total)
T409C 000:573 JLINK_Go() -- CPU_ReadMem(4 bytes @ 0xE0001000) (0001ms, 0278ms total)
T409C 000:574 JLINK_IsHalted()  returns FALSE (0000ms, 0278ms total)
T409C 000:576 JLINK_IsHalted()  returns FALSE (0000ms, 0278ms total)
T409C 000:577 JLINK_IsHalted()  returns FALSE (0000ms, 0278ms total)
T409C 000:579 JLINK_IsHalted()  returns FALSE (0000ms, 0278ms total)
T409C 000:581 JLINK_IsHalted()  returns FALSE (0000ms, 0278ms total)
T409C 000:583 JLINK_IsHalted()  returns FALSE (0000ms, 0278ms total)
T409C 000:584 JLINK_IsHalted()  returns FALSE (0000ms, 0278ms total)
T409C 000:586 JLINK_IsHalted()  returns FALSE (0000ms, 0278ms total)
T409C 000:587 JLINK_IsHalted()  returns FALSE (0000ms, 0278ms total)
T409C 000:589 JLINK_IsHalted()  returns FALSE (0000ms, 0278ms total)
T409C 000:590 JLINK_IsHalted()  returns FALSE (0000ms, 0278ms total)
T409C 000:592 JLINK_IsHalted()  returns FALSE (0000ms, 0278ms total)
T409C 000:594 JLINK_IsHalted()  returns FALSE (0000ms, 0278ms total)
T409C 000:595 JLINK_IsHalted()  returns FALSE (0000ms, 0278ms total)
T409C 000:597 JLINK_IsHalted()  returns FALSE (0000ms, 0278ms total)
T409C 000:599 JLINK_IsHalted()  returns FALSE (0000ms, 0278ms total)
T409C 000:600 JLINK_IsHalted()  returns FALSE (0000ms, 0278ms total)
T409C 000:602 JLINK_IsHalted()  returns FALSE (0000ms, 0278ms total)
T409C 000:604 JLINK_IsHalted()  returns FALSE (0000ms, 0278ms total)
T409C 000:606 JLINK_IsHalted() -- CPU_ReadMem(2 bytes @ 0x20000000)  returns TRUE (0003ms, 0281ms total)
T409C 000:609 JLINK_ReadReg(R15 (PC))  returns 0x20000000 (0000ms, 0278ms total)
T409C 000:609 JLINK_ClrBPEx(BPHandle = 0x00000006)  returns 0x00 (0000ms, 0278ms total)
T409C 000:609 JLINK_ReadReg(R0)  returns 0x00000000 (0000ms, 0278ms total)
T409C 000:609 JLINK_WriteMem(0x20000260, 0x0400 Bytes, ...) - Data: 01 88 09 05 02 D5 21 4C 7C 44 02 E0 1F 4C 7C 44 ... -- CPU_WriteMem(1024 bytes @ 0x20000260)  returns 0x400 (0006ms, 0284ms total)
T409C 000:615 JLINK_WriteReg(R0, 0x08000800)  returns 0x00 (0000ms, 0284ms total)
T409C 000:615 JLINK_WriteReg(R1, 0x00000400)  returns 0x00 (0000ms, 0284ms total)
T409C 000:615 JLINK_WriteReg(R2, 0x20000260)  returns 0x00 (0000ms, 0284ms total)
T409C 000:615 JLINK_WriteReg(R3, 0x00000000)  returns 0x00 (0000ms, 0284ms total)
T409C 000:615 JLINK_WriteReg(R4, 0x00000000)  returns 0x00 (0000ms, 0284ms total)
T409C 000:615 JLINK_WriteReg(R5, 0x00000000)  returns 0x00 (0000ms, 0284ms total)
T409C 000:615 JLINK_WriteReg(R6, 0x00000000)  returns 0x00 (0000ms, 0284ms total)
T409C 000:615 JLINK_WriteReg(R7, 0x00000000)  returns 0x00 (0000ms, 0284ms total)
T409C 000:615 JLINK_WriteReg(R8, 0x00000000)  returns 0x00 (0000ms, 0284ms total)
T409C 000:615 JLINK_WriteReg(R9, 0x20000258)  returns 0x00 (0000ms, 0284ms total)
T409C 000:615 JLINK_WriteReg(R10, 0x00000000)  returns 0x00 (0000ms, 0284ms total)
T409C 000:615 JLINK_WriteReg(R11, 0x00000000)  returns 0x00 (0000ms, 0284ms total)
T409C 000:615 JLINK_WriteReg(R12, 0x00000000)  returns 0x00 (0000ms, 0284ms total)
T409C 000:615 JLINK_WriteReg(R13 (SP), 0x20001000)  returns 0x00 (0000ms, 0284ms total)
T409C 000:615 JLINK_WriteReg(R14, 0x20000001)  returns 0x00 (0000ms, 0284ms total)
T409C 000:615 JLINK_WriteReg(R15 (PC), 0x2000018C)  returns 0x00 (0000ms, 0284ms total)
T409C 000:615 JLINK_WriteReg(XPSR, 0x01000000)  returns 0x00 (0000ms, 0284ms total)
T409C 000:615 JLINK_WriteReg(MSP, 0x20001000)  returns 0x00 (0000ms, 0284ms total)
T409C 000:615 JLINK_WriteReg(PSP, 0x20001000)  returns 0x00 (0000ms, 0284ms total)
T409C 000:615 JLINK_WriteReg(CFBP, 0x00000000)  returns 0x00 (0000ms, 0284ms total)
T409C 000:615 JLINK_SetBPEx(Addr = 0x20000000, Type = 0xFFFFFFF2)  returns 0x00000007 (0000ms, 0284ms total)
T409C 000:615 JLINK_Go() -- CPU_ReadMem(4 bytes @ 0xE0001000) (0002ms, 0286ms total)
T409C 000:617 JLINK_IsHalted()  returns FALSE (0000ms, 0286ms total)
T409C 000:619 JLINK_IsHalted()  returns FALSE (0000ms, 0286ms total)
T409C 000:621 JLINK_IsHalted()  returns FALSE (0000ms, 0286ms total)
T409C 000:622 JLINK_IsHalted()  returns FALSE (0000ms, 0286ms total)
T409C 000:624 JLINK_IsHalted()  returns FALSE (0000ms, 0286ms total)
T409C 000:626 JLINK_IsHalted()  returns FALSE (0000ms, 0286ms total)
T409C 000:627 JLINK_IsHalted()  returns FALSE (0000ms, 0286ms total)
T409C 000:629 JLINK_IsHalted()  returns FALSE (0000ms, 0286ms total)
T409C 000:631 JLINK_IsHalted()  returns FALSE (0000ms, 0286ms total)
T409C 000:632 JLINK_IsHalted()  returns FALSE (0000ms, 0286ms total)
T409C 000:634 JLINK_IsHalted()  returns FALSE (0000ms, 0286ms total)
T409C 000:639 JLINK_IsHalted()  returns FALSE (0000ms, 0286ms total)
T409C 000:641 JLINK_IsHalted()  returns FALSE (0000ms, 0286ms total)
T409C 000:642 JLINK_IsHalted()  returns FALSE (0000ms, 0286ms total)
T409C 000:644 JLINK_IsHalted()  returns FALSE (0000ms, 0286ms total)
T409C 000:645 JLINK_IsHalted()  returns FALSE (0000ms, 0286ms total)
T409C 000:647 JLINK_IsHalted()  returns FALSE (0000ms, 0286ms total)
T409C 000:649 JLINK_IsHalted() -- CPU_ReadMem(2 bytes @ 0x20000000)  returns TRUE (0003ms, 0289ms total)
T409C 000:652 JLINK_ReadReg(R15 (PC))  returns 0x20000000 (0000ms, 0286ms total)
T409C 000:652 JLINK_ClrBPEx(BPHandle = 0x00000007)  returns 0x00 (0000ms, 0286ms total)
T409C 000:652 JLINK_ReadReg(R0)  returns 0x00000000 (0000ms, 0286ms total)
T409C 000:652 JLINK_WriteMem(0x20000260, 0x0400 Bytes, ...) - Data: 00 21 08 46 4F F0 00 00 BA F1 00 0F 00 F4 40 00 ... -- CPU_WriteMem(1024 bytes @ 0x20000260)  returns 0x400 (0006ms, 0292ms total)
T409C 000:658 JLINK_WriteReg(R0, 0x08000C00)  returns 0x00 (0000ms, 0292ms total)
T409C 000:658 JLINK_WriteReg(R1, 0x00000400)  returns 0x00 (0000ms, 0292ms total)
T409C 000:658 JLINK_WriteReg(R2, 0x20000260)  returns 0x00 (0000ms, 0292ms total)
T409C 000:658 JLINK_WriteReg(R3, 0x00000000)  returns 0x00 (0000ms, 0292ms total)
T409C 000:658 JLINK_WriteReg(R4, 0x00000000)  returns 0x00 (0000ms, 0292ms total)
T409C 000:658 JLINK_WriteReg(R5, 0x00000000)  returns 0x00 (0000ms, 0292ms total)
T409C 000:658 JLINK_WriteReg(R6, 0x00000000)  returns 0x00 (0000ms, 0292ms total)
T409C 000:658 JLINK_WriteReg(R7, 0x00000000)  returns 0x00 (0000ms, 0292ms total)
T409C 000:658 JLINK_WriteReg(R8, 0x00000000)  returns 0x00 (0000ms, 0292ms total)
T409C 000:658 JLINK_WriteReg(R9, 0x20000258)  returns 0x00 (0000ms, 0292ms total)
T409C 000:658 JLINK_WriteReg(R10, 0x00000000)  returns 0x00 (0000ms, 0292ms total)
T409C 000:658 JLINK_WriteReg(R11, 0x00000000)  returns 0x00 (0000ms, 0292ms total)
T409C 000:658 JLINK_WriteReg(R12, 0x00000000)  returns 0x00 (0000ms, 0292ms total)
T409C 000:658 JLINK_WriteReg(R13 (SP), 0x20001000)  returns 0x00 (0000ms, 0292ms total)
T409C 000:658 JLINK_WriteReg(R14, 0x20000001)  returns 0x00 (0000ms, 0292ms total)
T409C 000:658 JLINK_WriteReg(R15 (PC), 0x2000018C)  returns 0x00 (0000ms, 0292ms total)
T409C 000:658 JLINK_WriteReg(XPSR, 0x01000000)  returns 0x00 (0000ms, 0292ms total)
T409C 000:658 JLINK_WriteReg(MSP, 0x20001000)  returns 0x00 (0000ms, 0292ms total)
T409C 000:658 JLINK_WriteReg(PSP, 0x20001000)  returns 0x00 (0000ms, 0292ms total)
T409C 000:658 JLINK_WriteReg(CFBP, 0x00000000)  returns 0x00 (0000ms, 0292ms total)
T409C 000:658 JLINK_SetBPEx(Addr = 0x20000000, Type = 0xFFFFFFF2)  returns 0x00000008 (0000ms, 0292ms total)
T409C 000:658 JLINK_Go() -- CPU_ReadMem(4 bytes @ 0xE0001000) (0002ms, 0294ms total)
T409C 000:660 JLINK_IsHalted()  returns FALSE (0000ms, 0294ms total)
T409C 000:662 JLINK_IsHalted()  returns FALSE (0000ms, 0294ms total)
T409C 000:666 JLINK_IsHalted()  returns FALSE (0000ms, 0294ms total)
T409C 000:667 JLINK_IsHalted()  returns FALSE (0000ms, 0294ms total)
T409C 000:669 JLINK_IsHalted()  returns FALSE (0000ms, 0294ms total)
T409C 000:671 JLINK_IsHalted()  returns FALSE (0000ms, 0294ms total)
T409C 000:672 JLINK_IsHalted()  returns FALSE (0000ms, 0294ms total)
T409C 000:674 JLINK_IsHalted()  returns FALSE (0000ms, 0294ms total)
T409C 000:676 JLINK_IsHalted()  returns FALSE (0000ms, 0294ms total)
T409C 000:677 JLINK_IsHalted()  returns FALSE (0000ms, 0294ms total)
T409C 000:679 JLINK_IsHalted()  returns FALSE (0000ms, 0294ms total)
T409C 000:681 JLINK_IsHalted()  returns FALSE (0000ms, 0294ms total)
T409C 000:683 JLINK_IsHalted()  returns FALSE (0000ms, 0294ms total)
T409C 000:684 JLINK_IsHalted()  returns FALSE (0000ms, 0294ms total)
T409C 000:686 JLINK_IsHalted()  returns FALSE (0000ms, 0294ms total)
T409C 000:688 JLINK_IsHalted()  returns FALSE (0000ms, 0294ms total)
T409C 000:690 JLINK_IsHalted()  returns FALSE (0000ms, 0294ms total)
T409C 000:692 JLINK_IsHalted() -- CPU_ReadMem(2 bytes @ 0x20000000)  returns TRUE (0003ms, 0297ms total)
T409C 000:695 JLINK_ReadReg(R15 (PC))  returns 0x20000000 (0000ms, 0294ms total)
T409C 000:695 JLINK_ClrBPEx(BPHandle = 0x00000008)  returns 0x00 (0000ms, 0294ms total)
T409C 000:695 JLINK_ReadReg(R0)  returns 0x00000000 (0000ms, 0294ms total)
T409C 000:695 JLINK_WriteMem(0x20000260, 0x0400 Bytes, ...) - Data: 01 E0 FF F7 8F FA 01 20 10 BD 12 78 00 F1 24 01 ... -- CPU_WriteMem(1024 bytes @ 0x20000260)  returns 0x400 (0006ms, 0300ms total)
T409C 000:701 JLINK_WriteReg(R0, 0x08001000)  returns 0x00 (0000ms, 0300ms total)
T409C 000:701 JLINK_WriteReg(R1, 0x00000400)  returns 0x00 (0000ms, 0300ms total)
T409C 000:701 JLINK_WriteReg(R2, 0x20000260)  returns 0x00 (0000ms, 0300ms total)
T409C 000:701 JLINK_WriteReg(R3, 0x00000000)  returns 0x00 (0000ms, 0300ms total)
T409C 000:701 JLINK_WriteReg(R4, 0x00000000)  returns 0x00 (0000ms, 0300ms total)
T409C 000:701 JLINK_WriteReg(R5, 0x00000000)  returns 0x00 (0000ms, 0300ms total)
T409C 000:701 JLINK_WriteReg(R6, 0x00000000)  returns 0x00 (0000ms, 0300ms total)
T409C 000:701 JLINK_WriteReg(R7, 0x00000000)  returns 0x00 (0000ms, 0300ms total)
T409C 000:701 JLINK_WriteReg(R8, 0x00000000)  returns 0x00 (0000ms, 0300ms total)
T409C 000:701 JLINK_WriteReg(R9, 0x20000258)  returns 0x00 (0000ms, 0300ms total)
T409C 000:701 JLINK_WriteReg(R10, 0x00000000)  returns 0x00 (0000ms, 0300ms total)
T409C 000:701 JLINK_WriteReg(R11, 0x00000000)  returns 0x00 (0000ms, 0300ms total)
T409C 000:701 JLINK_WriteReg(R12, 0x00000000)  returns 0x00 (0000ms, 0300ms total)
T409C 000:701 JLINK_WriteReg(R13 (SP), 0x20001000)  returns 0x00 (0000ms, 0300ms total)
T409C 000:701 JLINK_WriteReg(R14, 0x20000001)  returns 0x00 (0000ms, 0300ms total)
T409C 000:701 JLINK_WriteReg(R15 (PC), 0x2000018C)  returns 0x00 (0000ms, 0300ms total)
T409C 000:701 JLINK_WriteReg(XPSR, 0x01000000)  returns 0x00 (0000ms, 0300ms total)
T409C 000:701 JLINK_WriteReg(MSP, 0x20001000)  returns 0x00 (0000ms, 0300ms total)
T409C 000:701 JLINK_WriteReg(PSP, 0x20001000)  returns 0x00 (0000ms, 0300ms total)
T409C 000:701 JLINK_WriteReg(CFBP, 0x00000000)  returns 0x00 (0000ms, 0300ms total)
T409C 000:701 JLINK_SetBPEx(Addr = 0x20000000, Type = 0xFFFFFFF2)  returns 0x00000009 (0000ms, 0300ms total)
T409C 000:701 JLINK_Go() -- CPU_ReadMem(4 bytes @ 0xE0001000) (0002ms, 0302ms total)
T409C 000:703 JLINK_IsHalted()  returns FALSE (0000ms, 0302ms total)
T409C 000:705 JLINK_IsHalted()  returns FALSE (0000ms, 0302ms total)
T409C 000:706 JLINK_IsHalted()  returns FALSE (0001ms, 0303ms total)
T409C 000:708 JLINK_IsHalted()  returns FALSE (0000ms, 0302ms total)
T409C 000:710 JLINK_IsHalted()  returns FALSE (0000ms, 0302ms total)
T409C 000:712 JLINK_IsHalted()  returns FALSE (0000ms, 0302ms total)
T409C 000:714 JLINK_IsHalted()  returns FALSE (0000ms, 0302ms total)
T409C 000:715 JLINK_IsHalted()  returns FALSE (0000ms, 0302ms total)
T409C 000:717 JLINK_IsHalted()  returns FALSE (0000ms, 0302ms total)
T409C 000:719 JLINK_IsHalted()  returns FALSE (0000ms, 0302ms total)
T409C 000:721 JLINK_IsHalted()  returns FALSE (0000ms, 0302ms total)
T409C 000:723 JLINK_IsHalted()  returns FALSE (0000ms, 0302ms total)
T409C 000:725 JLINK_IsHalted()  returns FALSE (0000ms, 0302ms total)
T409C 000:727 JLINK_IsHalted()  returns FALSE (0000ms, 0302ms total)
T409C 000:729 JLINK_IsHalted()  returns FALSE (0000ms, 0302ms total)
T409C 000:731 JLINK_IsHalted()  returns FALSE (0000ms, 0302ms total)
T409C 000:732 JLINK_IsHalted()  returns FALSE (0000ms, 0302ms total)
T409C 000:734 JLINK_IsHalted() -- CPU_ReadMem(2 bytes @ 0x20000000)  returns TRUE (0003ms, 0305ms total)
T409C 000:737 JLINK_ReadReg(R15 (PC))  returns 0x20000000 (0000ms, 0302ms total)
T409C 000:737 JLINK_ClrBPEx(BPHandle = 0x00000009)  returns 0x00 (0000ms, 0302ms total)
T409C 000:737 JLINK_ReadReg(R0)  returns 0x00000000 (0000ms, 0302ms total)
T409C 000:738 JLINK_WriteMem(0x20000260, 0x0400 Bytes, ...) - Data: 7F 4C 80 EA 03 00 23 F0 7F 47 AC EB 07 03 03 F5 ... -- CPU_WriteMem(1024 bytes @ 0x20000260)  returns 0x400 (0006ms, 0309ms total)
T409C 000:744 JLINK_WriteReg(R0, 0x08001400)  returns 0x00 (0000ms, 0309ms total)
T409C 000:744 JLINK_WriteReg(R1, 0x00000400)  returns 0x00 (0000ms, 0309ms total)
T409C 000:744 JLINK_WriteReg(R2, 0x20000260)  returns 0x00 (0000ms, 0309ms total)
T409C 000:744 JLINK_WriteReg(R3, 0x00000000)  returns 0x00 (0000ms, 0309ms total)
T409C 000:744 JLINK_WriteReg(R4, 0x00000000)  returns 0x00 (0000ms, 0309ms total)
T409C 000:744 JLINK_WriteReg(R5, 0x00000000)  returns 0x00 (0000ms, 0309ms total)
T409C 000:744 JLINK_WriteReg(R6, 0x00000000)  returns 0x00 (0000ms, 0309ms total)
T409C 000:744 JLINK_WriteReg(R7, 0x00000000)  returns 0x00 (0000ms, 0309ms total)
T409C 000:744 JLINK_WriteReg(R8, 0x00000000)  returns 0x00 (0000ms, 0309ms total)
T409C 000:744 JLINK_WriteReg(R9, 0x20000258)  returns 0x00 (0000ms, 0309ms total)
T409C 000:744 JLINK_WriteReg(R10, 0x00000000)  returns 0x00 (0000ms, 0309ms total)
T409C 000:744 JLINK_WriteReg(R11, 0x00000000)  returns 0x00 (0000ms, 0309ms total)
T409C 000:744 JLINK_WriteReg(R12, 0x00000000)  returns 0x00 (0000ms, 0309ms total)
T409C 000:744 JLINK_WriteReg(R13 (SP), 0x20001000)  returns 0x00 (0000ms, 0309ms total)
T409C 000:744 JLINK_WriteReg(R14, 0x20000001)  returns 0x00 (0000ms, 0309ms total)
T409C 000:744 JLINK_WriteReg(R15 (PC), 0x2000018C)  returns 0x00 (0000ms, 0309ms total)
T409C 000:744 JLINK_WriteReg(XPSR, 0x01000000)  returns 0x00 (0000ms, 0309ms total)
T409C 000:744 JLINK_WriteReg(MSP, 0x20001000)  returns 0x00 (0000ms, 0309ms total)
T409C 000:744 JLINK_WriteReg(PSP, 0x20001000)  returns 0x00 (0000ms, 0309ms total)
T409C 000:744 JLINK_WriteReg(CFBP, 0x00000000)  returns 0x00 (0000ms, 0309ms total)
T409C 000:744 JLINK_SetBPEx(Addr = 0x20000000, Type = 0xFFFFFFF2)  returns 0x0000000A (0000ms, 0309ms total)
T409C 000:744 JLINK_Go() -- CPU_ReadMem(4 bytes @ 0xE0001000) (0002ms, 0311ms total)
T409C 000:746 JLINK_IsHalted()  returns FALSE (0000ms, 0311ms total)
T409C 000:747 JLINK_IsHalted()  returns FALSE (0000ms, 0311ms total)
T409C 000:749 JLINK_IsHalted()  returns FALSE (0000ms, 0311ms total)
T409C 000:751 JLINK_IsHalted()  returns FALSE (0000ms, 0311ms total)
T409C 000:752 JLINK_IsHalted()  returns FALSE (0000ms, 0311ms total)
T409C 000:754 JLINK_IsHalted()  returns FALSE (0000ms, 0311ms total)
T409C 000:756 JLINK_IsHalted()  returns FALSE (0000ms, 0311ms total)
T409C 000:757 JLINK_IsHalted()  returns FALSE (0000ms, 0311ms total)
T409C 000:759 JLINK_IsHalted()  returns FALSE (0000ms, 0311ms total)
T409C 000:761 JLINK_IsHalted()  returns FALSE (0000ms, 0311ms total)
T409C 000:763 JLINK_IsHalted()  returns FALSE (0000ms, 0311ms total)
T409C 000:764 JLINK_IsHalted()  returns FALSE (0000ms, 0311ms total)
T409C 000:766 JLINK_IsHalted()  returns FALSE (0000ms, 0311ms total)
T409C 000:767 JLINK_IsHalted()  returns FALSE (0000ms, 0311ms total)
T409C 000:769 JLINK_IsHalted()  returns FALSE (0000ms, 0311ms total)
T409C 000:773 JLINK_IsHalted()  returns FALSE (0000ms, 0311ms total)
T409C 000:774 JLINK_IsHalted()  returns FALSE (0000ms, 0311ms total)
T409C 000:776 JLINK_IsHalted()  returns FALSE (0000ms, 0311ms total)
T409C 000:777 JLINK_IsHalted() -- CPU_ReadMem(2 bytes @ 0x20000000)  returns TRUE (0003ms, 0314ms total)
T409C 000:780 JLINK_ReadReg(R15 (PC))  returns 0x20000000 (0000ms, 0311ms total)
T409C 000:780 JLINK_ClrBPEx(BPHandle = 0x0000000A)  returns 0x00 (0000ms, 0311ms total)
T409C 000:780 JLINK_ReadReg(R0)  returns 0x00000000 (0000ms, 0311ms total)
T409C 000:781 JLINK_WriteMem(0x20000260, 0x0400 Bytes, ...) - Data: 93 46 30 B4 91 E8 38 00 07 C8 31 EA 40 0C 48 BF ... -- CPU_WriteMem(1024 bytes @ 0x20000260)  returns 0x400 (0006ms, 0317ms total)
T409C 000:787 JLINK_WriteReg(R0, 0x08001800)  returns 0x00 (0000ms, 0317ms total)
T409C 000:787 JLINK_WriteReg(R1, 0x00000400)  returns 0x00 (0000ms, 0317ms total)
T409C 000:787 JLINK_WriteReg(R2, 0x20000260)  returns 0x00 (0000ms, 0317ms total)
T409C 000:787 JLINK_WriteReg(R3, 0x00000000)  returns 0x00 (0000ms, 0317ms total)
T409C 000:787 JLINK_WriteReg(R4, 0x00000000)  returns 0x00 (0000ms, 0317ms total)
T409C 000:787 JLINK_WriteReg(R5, 0x00000000)  returns 0x00 (0000ms, 0317ms total)
T409C 000:787 JLINK_WriteReg(R6, 0x00000000)  returns 0x00 (0000ms, 0317ms total)
T409C 000:787 JLINK_WriteReg(R7, 0x00000000)  returns 0x00 (0000ms, 0317ms total)
T409C 000:787 JLINK_WriteReg(R8, 0x00000000)  returns 0x00 (0000ms, 0317ms total)
T409C 000:787 JLINK_WriteReg(R9, 0x20000258)  returns 0x00 (0000ms, 0317ms total)
T409C 000:787 JLINK_WriteReg(R10, 0x00000000)  returns 0x00 (0000ms, 0317ms total)
T409C 000:787 JLINK_WriteReg(R11, 0x00000000)  returns 0x00 (0000ms, 0317ms total)
T409C 000:787 JLINK_WriteReg(R12, 0x00000000)  returns 0x00 (0000ms, 0317ms total)
T409C 000:787 JLINK_WriteReg(R13 (SP), 0x20001000)  returns 0x00 (0000ms, 0317ms total)
T409C 000:787 JLINK_WriteReg(R14, 0x20000001)  returns 0x00 (0000ms, 0317ms total)
T409C 000:787 JLINK_WriteReg(R15 (PC), 0x2000018C)  returns 0x00 (0000ms, 0317ms total)
T409C 000:787 JLINK_WriteReg(XPSR, 0x01000000)  returns 0x00 (0000ms, 0317ms total)
T409C 000:787 JLINK_WriteReg(MSP, 0x20001000)  returns 0x00 (0000ms, 0317ms total)
T409C 000:787 JLINK_WriteReg(PSP, 0x20001000)  returns 0x00 (0000ms, 0317ms total)
T409C 000:787 JLINK_WriteReg(CFBP, 0x00000000)  returns 0x00 (0000ms, 0317ms total)
T409C 000:787 JLINK_SetBPEx(Addr = 0x20000000, Type = 0xFFFFFFF2)  returns 0x0000000B (0000ms, 0317ms total)
T409C 000:787 JLINK_Go() -- CPU_ReadMem(4 bytes @ 0xE0001000) (0001ms, 0318ms total)
T409C 000:788 JLINK_IsHalted()  returns FALSE (0001ms, 0319ms total)
T409C 000:790 JLINK_IsHalted()  returns FALSE (0000ms, 0318ms total)
T409C 000:792 JLINK_IsHalted()  returns FALSE (0000ms, 0318ms total)
T409C 000:793 JLINK_IsHalted()  returns FALSE (0000ms, 0318ms total)
T409C 000:795 JLINK_IsHalted()  returns FALSE (0000ms, 0318ms total)
T409C 000:797 JLINK_IsHalted()  returns FALSE (0000ms, 0318ms total)
T409C 000:798 JLINK_IsHalted()  returns FALSE (0000ms, 0318ms total)
T409C 000:800 JLINK_IsHalted()  returns FALSE (0000ms, 0318ms total)
T409C 000:802 JLINK_IsHalted()  returns FALSE (0000ms, 0318ms total)
T409C 000:803 JLINK_IsHalted()  returns FALSE (0000ms, 0318ms total)
T409C 000:805 JLINK_IsHalted()  returns FALSE (0000ms, 0318ms total)
T409C 000:806 JLINK_IsHalted()  returns FALSE (0000ms, 0318ms total)
T409C 000:808 JLINK_IsHalted()  returns FALSE (0001ms, 0319ms total)
T409C 000:810 JLINK_IsHalted()  returns FALSE (0001ms, 0319ms total)
T409C 000:812 JLINK_IsHalted()  returns FALSE (0000ms, 0318ms total)
T409C 000:813 JLINK_IsHalted()  returns FALSE (0000ms, 0318ms total)
T409C 000:815 JLINK_IsHalted()  returns FALSE (0000ms, 0318ms total)
T409C 000:817 JLINK_IsHalted()  returns FALSE (0000ms, 0318ms total)
T409C 000:819 JLINK_IsHalted()  returns FALSE (0000ms, 0318ms total)
T409C 000:820 JLINK_IsHalted() -- CPU_ReadMem(2 bytes @ 0x20000000)  returns TRUE (0003ms, 0321ms total)
T409C 000:823 JLINK_ReadReg(R15 (PC))  returns 0x20000000 (0000ms, 0318ms total)
T409C 000:823 JLINK_ClrBPEx(BPHandle = 0x0000000B)  returns 0x00 (0000ms, 0318ms total)
T409C 000:823 JLINK_ReadReg(R0)  returns 0x00000000 (0000ms, 0318ms total)
T409C 000:824 JLINK_WriteMem(0x20000260, 0x0400 Bytes, ...) - Data: 0B 21 1D 48 4C 38 00 F0 3B F8 05 23 03 22 0E 21 ... -- CPU_WriteMem(1024 bytes @ 0x20000260)  returns 0x400 (0006ms, 0324ms total)
T409C 000:830 JLINK_WriteReg(R0, 0x08001C00)  returns 0x00 (0000ms, 0324ms total)
T409C 000:830 JLINK_WriteReg(R1, 0x00000400)  returns 0x00 (0000ms, 0324ms total)
T409C 000:830 JLINK_WriteReg(R2, 0x20000260)  returns 0x00 (0000ms, 0324ms total)
T409C 000:830 JLINK_WriteReg(R3, 0x00000000)  returns 0x00 (0000ms, 0324ms total)
T409C 000:830 JLINK_WriteReg(R4, 0x00000000)  returns 0x00 (0000ms, 0324ms total)
T409C 000:830 JLINK_WriteReg(R5, 0x00000000)  returns 0x00 (0000ms, 0324ms total)
T409C 000:830 JLINK_WriteReg(R6, 0x00000000)  returns 0x00 (0000ms, 0324ms total)
T409C 000:830 JLINK_WriteReg(R7, 0x00000000)  returns 0x00 (0000ms, 0324ms total)
T409C 000:830 JLINK_WriteReg(R8, 0x00000000)  returns 0x00 (0000ms, 0324ms total)
T409C 000:830 JLINK_WriteReg(R9, 0x20000258)  returns 0x00 (0000ms, 0324ms total)
T409C 000:830 JLINK_WriteReg(R10, 0x00000000)  returns 0x00 (0000ms, 0324ms total)
T409C 000:830 JLINK_WriteReg(R11, 0x00000000)  returns 0x00 (0000ms, 0324ms total)
T409C 000:830 JLINK_WriteReg(R12, 0x00000000)  returns 0x00 (0000ms, 0324ms total)
T409C 000:830 JLINK_WriteReg(R13 (SP), 0x20001000)  returns 0x00 (0000ms, 0324ms total)
T409C 000:830 JLINK_WriteReg(R14, 0x20000001)  returns 0x00 (0000ms, 0324ms total)
T409C 000:830 JLINK_WriteReg(R15 (PC), 0x2000018C)  returns 0x00 (0000ms, 0324ms total)
T409C 000:830 JLINK_WriteReg(XPSR, 0x01000000)  returns 0x00 (0000ms, 0324ms total)
T409C 000:830 JLINK_WriteReg(MSP, 0x20001000)  returns 0x00 (0000ms, 0324ms total)
T409C 000:830 JLINK_WriteReg(PSP, 0x20001000)  returns 0x00 (0000ms, 0324ms total)
T409C 000:830 JLINK_WriteReg(CFBP, 0x00000000)  returns 0x00 (0000ms, 0324ms total)
T409C 000:830 JLINK_SetBPEx(Addr = 0x20000000, Type = 0xFFFFFFF2)  returns 0x0000000C (0000ms, 0324ms total)
T409C 000:830 JLINK_Go() -- CPU_ReadMem(4 bytes @ 0xE0001000) (0001ms, 0325ms total)
T409C 000:831 JLINK_IsHalted()  returns FALSE (0001ms, 0326ms total)
T409C 000:834 JLINK_IsHalted()  returns FALSE (0000ms, 0325ms total)
T409C 000:835 JLINK_IsHalted()  returns FALSE (0000ms, 0325ms total)
T409C 000:837 JLINK_IsHalted()  returns FALSE (0000ms, 0325ms total)
T409C 000:839 JLINK_IsHalted()  returns FALSE (0000ms, 0325ms total)
T409C 000:841 JLINK_IsHalted()  returns FALSE (0000ms, 0325ms total)
T409C 000:842 JLINK_IsHalted()  returns FALSE (0000ms, 0325ms total)
T409C 000:844 JLINK_IsHalted()  returns FALSE (0000ms, 0325ms total)
T409C 000:845 JLINK_IsHalted()  returns FALSE (0000ms, 0325ms total)
T409C 000:847 JLINK_IsHalted()  returns FALSE (0000ms, 0325ms total)
T409C 000:849 JLINK_IsHalted()  returns FALSE (0000ms, 0325ms total)
T409C 000:852 JLINK_IsHalted()  returns FALSE (0000ms, 0325ms total)
T409C 000:854 JLINK_IsHalted()  returns FALSE (0000ms, 0325ms total)
T409C 000:856 JLINK_IsHalted()  returns FALSE (0000ms, 0325ms total)
T409C 000:858 JLINK_IsHalted()  returns FALSE (0000ms, 0325ms total)
T409C 000:860 JLINK_IsHalted()  returns FALSE (0000ms, 0325ms total)
T409C 000:862 JLINK_IsHalted()  returns FALSE (0000ms, 0325ms total)
T409C 000:863 JLINK_IsHalted() -- CPU_ReadMem(2 bytes @ 0x20000000)  returns TRUE (0003ms, 0328ms total)
T409C 000:866 JLINK_ReadReg(R15 (PC))  returns 0x20000000 (0000ms, 0325ms total)
T409C 000:866 JLINK_ClrBPEx(BPHandle = 0x0000000C)  returns 0x00 (0000ms, 0325ms total)
T409C 000:866 JLINK_ReadReg(R0)  returns 0x00000000 (0000ms, 0325ms total)
T409C 000:867 JLINK_WriteMem(0x20000260, 0x0400 Bytes, ...) - Data: 08 B5 01 F0 35 FE 01 F0 CB FD 4F F4 80 60 01 F0 ... -- CPU_WriteMem(1024 bytes @ 0x20000260)  returns 0x400 (0006ms, 0331ms total)
T409C 000:873 JLINK_WriteReg(R0, 0x08002000)  returns 0x00 (0000ms, 0331ms total)
T409C 000:873 JLINK_WriteReg(R1, 0x00000400)  returns 0x00 (0000ms, 0331ms total)
T409C 000:873 JLINK_WriteReg(R2, 0x20000260)  returns 0x00 (0000ms, 0331ms total)
T409C 000:873 JLINK_WriteReg(R3, 0x00000000)  returns 0x00 (0000ms, 0331ms total)
T409C 000:873 JLINK_WriteReg(R4, 0x00000000)  returns 0x00 (0000ms, 0331ms total)
T409C 000:873 JLINK_WriteReg(R5, 0x00000000)  returns 0x00 (0000ms, 0331ms total)
T409C 000:873 JLINK_WriteReg(R6, 0x00000000)  returns 0x00 (0000ms, 0331ms total)
T409C 000:873 JLINK_WriteReg(R7, 0x00000000)  returns 0x00 (0000ms, 0331ms total)
T409C 000:873 JLINK_WriteReg(R8, 0x00000000)  returns 0x00 (0000ms, 0331ms total)
T409C 000:873 JLINK_WriteReg(R9, 0x20000258)  returns 0x00 (0000ms, 0331ms total)
T409C 000:873 JLINK_WriteReg(R10, 0x00000000)  returns 0x00 (0000ms, 0331ms total)
T409C 000:873 JLINK_WriteReg(R11, 0x00000000)  returns 0x00 (0000ms, 0331ms total)
T409C 000:873 JLINK_WriteReg(R12, 0x00000000)  returns 0x00 (0000ms, 0331ms total)
T409C 000:873 JLINK_WriteReg(R13 (SP), 0x20001000)  returns 0x00 (0000ms, 0331ms total)
T409C 000:873 JLINK_WriteReg(R14, 0x20000001)  returns 0x00 (0000ms, 0331ms total)
T409C 000:873 JLINK_WriteReg(R15 (PC), 0x2000018C)  returns 0x00 (0000ms, 0331ms total)
T409C 000:873 JLINK_WriteReg(XPSR, 0x01000000)  returns 0x00 (0000ms, 0331ms total)
T409C 000:873 JLINK_WriteReg(MSP, 0x20001000)  returns 0x00 (0000ms, 0331ms total)
T409C 000:873 JLINK_WriteReg(PSP, 0x20001000)  returns 0x00 (0000ms, 0331ms total)
T409C 000:873 JLINK_WriteReg(CFBP, 0x00000000)  returns 0x00 (0000ms, 0331ms total)
T409C 000:873 JLINK_SetBPEx(Addr = 0x20000000, Type = 0xFFFFFFF2)  returns 0x0000000D (0000ms, 0331ms total)
T409C 000:873 JLINK_Go() -- CPU_ReadMem(4 bytes @ 0xE0001000) (0002ms, 0333ms total)
T409C 000:875 JLINK_IsHalted()  returns FALSE (0000ms, 0333ms total)
T409C 000:876 JLINK_IsHalted()  returns FALSE (0000ms, 0333ms total)
T409C 000:878 JLINK_IsHalted()  returns FALSE (0000ms, 0333ms total)
T409C 000:880 JLINK_IsHalted()  returns FALSE (0000ms, 0333ms total)
T409C 000:884 JLINK_IsHalted()  returns FALSE (0000ms, 0333ms total)
T409C 000:886 JLINK_IsHalted()  returns FALSE (0000ms, 0333ms total)
T409C 000:887 JLINK_IsHalted()  returns FALSE (0000ms, 0333ms total)
T409C 000:889 JLINK_IsHalted()  returns FALSE (0000ms, 0333ms total)
T409C 000:891 JLINK_IsHalted()  returns FALSE (0000ms, 0333ms total)
T409C 000:892 JLINK_IsHalted()  returns FALSE (0000ms, 0333ms total)
T409C 000:894 JLINK_IsHalted()  returns FALSE (0000ms, 0333ms total)
T409C 000:896 JLINK_IsHalted()  returns FALSE (0000ms, 0333ms total)
T409C 000:897 JLINK_IsHalted()  returns FALSE (0000ms, 0333ms total)
T409C 000:899 JLINK_IsHalted()  returns FALSE (0000ms, 0333ms total)
T409C 000:900 JLINK_IsHalted()  returns FALSE (0000ms, 0333ms total)
T409C 000:902 JLINK_IsHalted()  returns FALSE (0000ms, 0333ms total)
T409C 000:903 JLINK_IsHalted()  returns FALSE (0000ms, 0333ms total)
T409C 000:905 JLINK_IsHalted()  returns FALSE (0000ms, 0333ms total)
T409C 000:906 JLINK_IsHalted() -- CPU_ReadMem(2 bytes @ 0x20000000)  returns TRUE (0003ms, 0336ms total)
T409C 000:909 JLINK_ReadReg(R15 (PC))  returns 0x20000000 (0000ms, 0333ms total)
T409C 000:909 JLINK_ClrBPEx(BPHandle = 0x0000000D)  returns 0x00 (0000ms, 0333ms total)
T409C 000:909 JLINK_ReadReg(R0)  returns 0x00000000 (0000ms, 0333ms total)
